 can0  18FFBCCD   [8]  F1 CC 00 FC FF FF FC 0F
  can0  18FFD094   [8]  01 7B 79 64 5C FF 00 F0
  can0  18FF6527   [8]  00 00 00 00 00 00 00 00
  can0  18FFD095   [8]  01 7C 7D 64 5C FF 00 F0
  can0  18FF1427   [8]  00 1A FF E5 FF FF 00 00
  can0  18FF6427   [8]  00 00 00 36 FB 00 00 00
  can0  18FF6627   [8]  40 06 06 00 40 06 06 00
  can0  18FF1490   [8]  00 00 00 00 00 00 00 00
  can0  18FFBCCE   [8]  F1 CC 00 FC FF FF FC 0F
  can0  18FFBCD0   [8]  F1 CC 00 FC FF FF FC 0F
  can0  18FFBCCC   [8]  F1 CC 00 FC FF FF FC 0F
  can0  18FF1491   [8]  00 00 00 00 00 00 00 00
  can0  18FFBCCF   [8]  F1 CC 00 FC FF FF FC 0F
  can0  18FF1494   [8]  00 00 00 00 00 50 FF 00
  can0  18FF6027   [8]  2C 01 00 00 2C 01 00 00
  can0  18FF6327   [8]  10 00 00 00 40 06 06 00
  can0  18FFBCD1   [8]  F1 CC 00 FC FF FF FC 0F
  can0  18FFBCCD   [8]  F1 CC 00 FC FF FF FC 0F
  can0  18FF6527   [8]  00 00 00 00 00 00 00 00
  can0  18FF1427   [8]  00 1A FF E5 FF FF 00 00
  can0  18FF6427   [8]  00 00 00 36 FB 00 00 00
  can0  18FF6627   [8]  40 06 05 00 40 06 05 00
  can0  18FFD092   [8]  01 7B 7D 64 5C FF 00 F0
  can0  18FF1490   [8]  00 00 00 00 00 00 00 00
  can0  18FFBCCE   [8]  F1 CC 00 FC FF FF FC 0F
  can0  18FFBCD0   [8]  F1 CC 00 FC FF FF FC 0F
  can0  18FFBCCC   [8]  F1 CC 00 FC FF FF FC 0F
  can0  18FFBDCC   [8]  F0 C0 F0 F3 00 30 0C FF
  can0  18FFD091   [8]  01 7D 7D 64 5C FF 00 F0
  can0  18FF1491   [8]  00 00 00 00 00 00 00 00
  can0  18FFBCCF   [8]  F1 CC 00 FC FF FF FC 0F
  can0  18FF1494   [8]  00 00 00 00 00 50 FF 00
  can0  18FF6027   [8]  2C 01 00 00 2C 01 00 00
  can0  18FF6327   [8]  10 00 00 00 40 06 05 00
  can0  18FFBCD1   [8]  F1 CC 00 FC FF FF FC 0F
  can0  18FFBCCD   [8]  F1 CC 00 FC FF FF FC 0F
  can0  18FF6527   [8]  00 00 00 00 00 00 00 00
  can0  18FF1427   [8]  00 1A FF E5 FF FF 00 00
  can0  18FF6427   [8]  00 00 00 36 FB 00 00 00
  can0  18FF6627   [8]  40 06 05 00 40 06 05 00
  can0  18FF1490   [8]  00 00 00 00 00 00 00 00
  can0  18FFBCCE   [8]  F1 CC 00 FC FF FF FC 0F
  can0  18FFBCD0   [8]  F1 CC 00 FC FF FF FC 0F
  can0  18FFBCCC   [8]  F1 CC 00 FC FF FF FC 0F
  can0  18FF1491   [8]  00 00 00 00 00 00 00 00
  can0  18FFBCCF   [8]  F1 CC 00 FC FF FF FC 0F
  can0  18FF1494   [8]  00 00 00 00 00 50 FF 00
  can0  18FF6027   [8]  2C 01 00 00 2C 01 00 00
  can0  18FF6327   [8]  10 00 00 00 40 06 05 00
  can0  18FFD09D   [8]  E0 7C 7C 78 5C FF 80 FC
  can0  18FFBCD1   [8]  F1 CC 00 FC FF FF FC 0F
  can0  18FFBCCD   [8]  F1 CC 00 FC FF FF FC 0F
  can0  18FF6527   [8]  00 00 00 00 00 00 00 00
  can0  18FF1427   [8]  00 1A FF E5 FF FF 00 00
  can0  18FF6427   [8]  00 00 00 36 FB 00 00 00
  can0  18FF6627   [8]  40 06 05 00 40 06 05 00
  can0  18FF1490   [8]  00 00 00 00 00 00 00 00
  can0  18FFBCCE   [8]  F1 CC 00 FC FF FF FC 0F
  can0  18FFBCD0   [8]  F1 CC 00 FC FF FF FC 0F
  can0  18FFBDD0   [8]  F0 C0 F0 F3 00 30 0C FF
  can0  18FFBCCC   [8]  F1 CC 00 FC FF FF FC 0F
  can0  18FF1491   [8]  00 00 00 00 00 00 00 00
  can0  18FFBCCF   [8]  F1 CC 00 FC FF FF FC 0F
  can0  18FF1494   [8]  00 00 00 00 00 50 FF 00
  can0  18FF6027   [8]  2C 01 00 00 2C 01 00 00
  can0  18FF6327   [8]  10 00 00 00 40 06 05 00
  can0  18FF6D19   [6]  00 00 37 00 03 00
  can0  18FFBCD1   [8]  F1 CC 00 FC FF FF FC 0F
  can0  18FFBCCD   [8]  F1 CC 00 FC FF FF FC 0F
  can0  18FF6527   [8]  00 00 00 00 00 00 00 00
  can0  18FF1427   [8]  00 1A FF E5 FF FF 00 00
  can0  18FF6427   [8]  00 00 00 36 FB 00 00 00
  can0  18FF6627   [8]  40 06 06 00 40 06 06 00
  can0  18FF1490   [8]  00 00 00 00 00 00 00 00
  can0  18FFBCCE   [8]  F1 CC 00 FC FF FF FC 0F
  can0  18FFBCD0   [8]  F1 CC 00 FC FF FF FC 0F
  can0  18FFBCCC   [8]  F1 CC 00 FC FF FF FC 0F
  can0  18FF1491   [8]  00 00 00 00 00 00 00 00
  can0  18FFBCCF   [8]  F1 CC 00 FC FF FF FC 0F
  can0  18FF1494   [8]  00 00 00 00 00 50 FF 00
  can0  18FF6027   [8]  2C 01 00 00 2C 01 00 00
  can0  18FF6327   [8]  10 00 00 00 40 06 06 00
  can0  18FFBCD1   [8]  F1 CC 00 FC FF FF FC 0F
  can0  18FFBDD1   [8]  F0 C0 F0 F3 00 30 0C FF
  can0  18FFBCCD   [8]  F1 CC 00 FC FF FF FC 0F
  can0  18FFBDCD   [8]  00 C0 F0 F3 00 30 0C CF
  can0  18FF6527   [8]  00 00 00 00 00 00 00 00
  can0  18FF1427   [8]  00 1A FF E5 FF FF 00 00
  can0  18FF6427   [8]  00 00 00 36 FB 00 00 00
  can0  18FF6627   [8]  40 06 05 00 40 06 05 00
  can0  18FF1490   [8]  00 00 00 00 00 00 00 00
  can0  18FFBCCE   [8]  F1 CC 00 FC FF FF FC 0F
  can0  18FFBCD0   [8]  F1 CC 00 FC FF FF FC 0F
  can0  18FFBCCC   [8]  F1 CC 00 FC FF FF FC 0F
  can0  18FF1491   [8]  00 00 00 00 00 00 00 00
  can0  18FFBCCF   [8]  F1 CC 00 FC FF FF FC 0F
  can0  18FF1494   [8]  00 00 00 00 00 50 FF 00
  can0  18FF6027   [8]  2C 01 00 00 2C 01 00 00
  can0  18FF6327   [8]  10 00 00 00 40 06 05 00
  can0  18FFBCD1   [8]  F1 CC 00 FC FF FF FC 0F
  can0  18FFBCCD   [8]  F1 CC 00 FC FF FF FC 0F
  can0  18FFD093   [8]  01 7E 7C 64 5C FF 00 F0
  can0  18FF6527   [8]  00 00 00 00 00 00 00 00
  can0  18FF1427   [8]  00 1A FF E5 FF FF 00 00
  can0  18FF6427   [8]  00 00 00 36 FB 00 00 00
  can0  18FF6627   [8]  40 06 05 00 40 06 05 00
  can0  18FF1490   [8]  00 00 00 00 00 00 00 00
  can0  18FFBCCE   [8]  F1 CC 00 FC FF FF FC 0F
  can0  18FFBCD0   [8]  F1 CC 00 FC FF FF FC 0F
  can0  18FFBCCC   [8]  F1 CC 00 FC FF FF FC 0F
  can0  18FF1491   [8]  00 00 00 00 00 00 00 00
  can0  18FFBCCF   [8]  F1 CC 00 FC FF FF FC 0F
  can0  18FF1494   [8]  00 00 00 00 00 50 FF 00
  can0  18FF6027   [8]  2C 01 00 00 2C 01 00 00
  can0  18FF6327   [8]  10 00 00 00 40 06 05 00
  can0  18FFBCD1   [8]  F1 CC 00 FC FF FF FC 0F
  can0  18FFBCCD   [8]  F1 CC 00 FC FF FF FC 0F
  can0  18FF6527   [8]  00 00 00 00 00 00 00 00
  can0  18FF1427   [8]  00 1A FF E5 FF FF 00 00
  can0  18FF6427   [8]  00 00 00 36 FB 00 00 00
  can0  18FF6627   [8]  40 06 06 00 40 06 06 00
  can0  18FF1490   [8]  00 00 00 00 00 00 00 00
  can0  18FFBCCE   [8]  F1 CC 00 FC FF FF FC 0F
  can0  18FFBCD0   [8]  F1 CC 00 FC FF FF FC 0F
  can0  18FFBCCC   [8]  F1 CC 00 FC FF FF FC 0F
  can0  18FF1491   [8]  00 00 00 00 00 00 00 00
  can0  18FFBCCF   [8]  F1 CC 00 FC FF FF FC 0F
  can0  18FF1494   [8]  00 00 00 00 00 50 FF 00
  can0  18FF6027   [8]  2C 01 00 00 2C 01 00 00
  can0  18FF6327   [8]  10 00 00 00 40 06 06 00
  can0  18FF5427   [8]  42 00 00 3C 03 00 00 00
  can0  18FFBCD1   [8]  F1 CC 00 FC FF FF FC 0F
  can0  18FFBCCD   [8]  F1 CC 00 FC FF FF FC 0F
  can0  18FF6527   [8]  00 00 00 00 00 00 00 00
  can0  18FF1427   [8]  00 1A FF E5 FF FF 00 00
  can0  18FF6427   [8]  00 00 00 36 FB 00 00 00
  can0  18FF6627   [8]  40 06 05 00 40 06 05 00
  can0  18FF1490   [8]  00 00 00 00 00 00 00 00
  can0  18FFBCCE   [8]  F1 CC 00 FC FF FF FC 0F
  can0  18FFBDCE   [8]  F0 C0 F0 F3 00 30 0C FF
  can0  18FFBCD0   [8]  F1 CC 00 FC FF FF FC 0F
  can0  18FFBCCC   [8]  F1 CC 00 FC FF FF FC 0F
  can0  18FF1491   [8]  00 00 00 00 00 00 00 00
  can0  18FFBCCF   [8]  F1 CC 00 FC FF FF FC 0F
  can0  18FFBDCF   [8]  F0 C0 F0 F3 00 30 0C FF
  can0  18FF1494   [8]  00 00 00 00 00 50 FF 00
  can0  18FF6027   [8]  2C 01 00 00 2C 01 00 00
  can0  18FF6327   [8]  10 00 00 00 40 06 05 00
  can0  18FF6E19   [6]  00 00 37 00 00 00
  can0  18FFBCD1   [8]  F1 CC 00 FC FF FF FC 0F
  can0  18FFBCCD   [8]  F1 CC 00 FC FF FF FC 0F
  can0  18FF5527   [8]  43 00 00 00 00 00 00 00
  can0  18FF6227   [8]  42 45 43 00 A0 24 00 00
  can0  18FF6127   [8]  43 FF 00 00 00 00 00 00
  can0  18FF6527   [8]  00 00 00 00 00 00 00 00
  can0  18FF1427   [8]  00 1A FF E5 FF FF 00 00
  can0  18FF6427   [8]  00 00 00 36 FB 00 00 00
  can0  18FF6627   [8]  3D 06 05 00 3D 06 05 00
  can0  18FF1490   [8]  00 00 00 00 00 00 00 00
  can0  18FFBCCE   [8]  F1 CC 00 FC FF FF FC 0F
  can0  18FFBCD0   [8]  F1 CC 00 FC FF FF FC 0F
  can0  18FFBCCC   [8]  F1 CC 00 FC FF FF FC 0F
  can0  18FF1491   [8]  00 00 00 00 00 00 00 00
  can0  18FFBCCF   [8]  F1 CC 00 FC FF FF FC 0F
  can0  18FF1494   [8]  00 00 00 00 00 50 FF 00
  can0  18FF6027   [8]  2C 01 00 00 2C 01 00 00
  can0  18FF6327   [8]  10 00 00 00 3D 06 05 00
  can0  18FFBCD1   [8]  F1 CC 00 FC FF FF FC 0F
  can0  18FFBCCD   [8]  F1 CC 00 FC FF FF FC 0F
  can0  18FFD094   [8]  01 7B 79 64 5C FF 00 F0
  can0  18FF6527   [8]  00 00 00 00 00 00 00 00
  can0  18FFD095   [8]  01 7C 7D 64 5C FF 00 F0
  can0  18FF1427   [8]  00 1A FF E5 FF FF 00 00
  can0  18FF6427   [8]  00 00 00 36 FB 00 00 00
  can0  18FF6627   [8]  40 06 05 00 40 06 05 00
  can0  18FF1490   [8]  00 00 00 00 00 00 00 00
  can0  18FFBCCE   [8]  F1 CC 00 FC FF FF FC 0F
  can0  18FFBCD0   [8]  F1 CC 00 FC FF FF FC 0F
  can0  18FFBCCC   [8]  F1 CC 00 FC FF FF FC 0F
  can0  18FF1491   [8]  00 00 00 00 00 00 00 00
  can0  18FFBCCF   [8]  F1 CC 00 FC FF FF FC 0F
  can0  18FF1494   [8]  00 00 00 00 00 50 FF 00
  can0  18FF6027   [8]  2C 01 00 00 2C 01 00 00
  can0  18FF6327   [8]  10 00 00 00 40 06 05 00
  can0  18FFBCD1   [8]  F1 CC 00 FC FF FF FC 0F
  can0  18FFBCCD   [8]  F1 CC 00 FC FF FF FC 0F
  can0  18FF6527   [8]  00 00 00 00 00 00 00 00
  can0  18FF1427   [8]  00 1A FF E5 FF FF 00 00
  can0  18FF6427   [8]  00 00 00 36 FB 00 00 00
  can0  18FFD092   [8]  01 7B 7D 64 5C FF 00 F0
  can0  18FF6627   [8]  40 06 06 00 40 06 06 00
  can0  18FF1490   [8]  00 00 00 00 00 00 00 00
  can0  18FFBCCE   [8]  F1 CC 00 FC FF FF FC 0F
  can0  18FFBCD0   [8]  F1 CC 00 FC FF FF FC 0F
  can0  18FFBCCC   [8]  F1 CC 00 FC FF FF FC 0F
  can0  18FFBDCC   [8]  F0 C0 F0 F3 00 30 0C FF
  can0  18FFD091   [8]  01 7D 7D 64 5C FF 00 F0
  can0  18FF1491   [8]  00 00 00 00 00 00 00 00
  can0  18FFBCCF   [8]  F1 CC 00 FC FF FF FC 0F
  can0  18FF1494   [8]  00 00 00 00 00 50 FF 00
  can0  18FF6027   [8]  2C 01 00 00 2C 01 00 00
  can0  18FF6327   [8]  10 00 00 00 40 06 06 00
  can0  18FFBCD1   [8]  F1 CC 00 FC FF FF FC 0F
  can0  18FFBCCD   [8]  F1 CC 00 FC FF FF FC 0F
  can0  18FF6527   [8]  00 00 00 00 00 00 00 00
  can0  18FF1427   [8]  00 1A FF E5 FF FF 00 00
  can0  18FF6427   [8]  00 00 00 36 FB 00 00 00
  can0  18FF6627   [8]  40 06 05 00 40 06 05 00
  can0  18FF1490   [8]  00 00 00 00 00 00 00 00
  can0  18FFBCCE   [8]  F1 CC 00 FC FF FF FC 0F
  can0  18FFBCD0   [8]  F1 CC 00 FC FF FF FC 0F
  can0  18FFBCCC   [8]  F1 CC 00 FC FF FF FC 0F
  can0  18FF1491   [8]  00 00 00 00 00 00 00 00
  can0  18FFBCCF   [8]  F1 CC 00 FC FF FF FC 0F
  can0  18FF1494   [8]  00 00 00 00 00 50 FF 00
  can0  18FF6027   [8]  2C 01 00 00 2C 01 00 00
  can0  18FF6327   [8]  10 00 00 00 40 06 05 00
  can0  18FFD09D   [8]  E0 7C 7C 79 5C FF 80 FC
  can0  18FFBCD1   [8]  F1 CC 00 FC FF FF FC 0F
  can0  18FFBCCD   [8]  F1 CC 00 FC FF FF FC 0F
  can0  18FF6527   [8]  00 00 00 00 00 00 00 00
  can0  18FF1427   [8]  00 1A FF E5 FF FF 00 00
  can0  18FF6427   [8]  00 00 00 36 FB 00 00 00
  can0  18FF6627   [8]  40 06 05 00 40 06 05 00
  can0  18FF1490   [8]  00 00 00 00 00 00 00 00
  can0  18FFBCCE   [8]  F1 CC 00 FC FF FF FC 0F
  can0  18FFBCD0   [8]  F1 CC 00 FC FF FF FC 0F
  can0  18FFBDD0   [8]  F0 C0 F0 F3 00 30 0C FF
  can0  18FFBCCC   [8]  F1 CC 00 FC FF FF FC 0F
  can0  18FF1491   [8]  00 00 00 00 00 00 00 00
  can0  18FFBCCF   [8]  F1 CC 00 FC FF FF FC 0F
  can0  18FF1494   [8]  00 00 00 00 00 50 FF 00
  can0  18FF6027   [8]  2C 01 00 00 2C 01 00 00
  can0  18FF6327   [8]  10 00 00 00 40 06 05 00
  can0  18FF6D19   [6]  00 00 37 00 03 00
  can0  18FFBCD1   [8]  F1 CC 00 FC FF FF FC 0F
  can0  18FFBCCD   [8]  F1 CC 00 FC FF FF FC 0F
  can0  18FF6527   [8]  00 00 00 00 00 00 00 00
  can0  18FF1427   [8]  00 1A FF E5 FF FF 00 00
  can0  18FF6427   [8]  00 00 00 36 FB 00 00 00
  can0  18FF6627   [8]  40 06 06 00 40 06 06 00
  can0  18FF1490   [8]  00 00 00 00 00 00 00 00
  can0  18FFBCCE   [8]  F1 CC 00 FC FF FF FC 0F
  can0  18FFBCD0   [8]  F1 CC 00 FC FF FF FC 0F
  can0  18FFBCCC   [8]  F1 CC 00 FC FF FF FC 0F
  can0  18FF1491   [8]  00 00 00 00 00 00 00 00
  can0  18FFBCCF   [8]  F1 CC 00 FC FF FF FC 0F
  can0  18FF1494   [8]  00 00 00 00 00 50 FF 00
  can0  18FF6027   [8]  2C 01 00 00 2C 01 00 00
  can0  18FF6327   [8]  10 00 00 00 40 06 06 00
  can0  18FFBCD1   [8]  F1 CC 00 FC FF FF FC 0F
  can0  18FFBDD1   [8]  F0 C0 F0 F3 00 30 0C FF
  can0  18FFBCCD   [8]  F1 CC 00 FC FF FF FC 0F
  can0  18FFBDCD   [8]  00 C0 F0 F3 00 30 0C CF
  can0  18FF6527   [8]  00 00 00 00 00 00 00 00
  can0  18FF1427   [8]  00 1A FF E5 FF FF 00 00
  can0  18FF6427   [8]  00 00 00 36 FB 00 00 00
  can0  18FF6627   [8]  40 06 05 00 40 06 05 00
  can0  18FF1490   [8]  00 00 00 00 00 00 00 00
  can0  18FFBCCE   [8]  F1 CC 00 FC FF FF FC 0F
  can0  18FFBCD0   [8]  F1 CC 00 FC FF FF FC 0F
  can0  18FFBCCC   [8]  F1 CC 00 FC FF FF FC 0F
  can0  18FF1491   [8]  00 00 00 00 00 00 00 00
  can0  18FFBCCF   [8]  F1 CC 00 FC FF FF FC 0F
  can0  18FF1494   [8]  00 00 00 00 00 50 FF 00
  can0  18FF6027   [8]  2C 01 00 00 2C 01 00 00
  can0  18FF6327   [8]  10 00 00 00 40 06 05 00
  can0  18FFBCD1   [8]  F1 CC 00 FC FF FF FC 0F
  can0  18FFBCCD   [8]  F1 CC 00 FC FF FF FC 0F
  can0  18FFD093   [8]  01 7E 7D 64 5C FF 00 F0
  can0  18FF6527   [8]  00 00 00 00 00 00 00 00
  can0  18FF1427   [8]  00 1A FF E5 FF FF 00 00
  can0  18FF6427   [8]  00 00 00 36 FB 00 00 00
  can0  18FF6627   [8]  40 06 05 00 40 06 05 00
  can0  18FF1490   [8]  00 00 00 00 00 00 00 00
  can0  18FFBCCE   [8]  F1 CC 00 FC FF FF FC 0F
  can0  18FFBCD0   [8]  F1 CC 00 FC FF FF FC 0F
  can0  18FFBCCC   [8]  F1 CC 00 FC FF FF FC 0F
  can0  18FF1491   [8]  00 00 00 00 00 00 00 00
  can0  18FFBCCF   [8]  F1 CC 00 FC FF FF FC 0F
  can0  18FF1494   [8]  00 00 00 00 00 50 FF 00
  can0  18FF6027   [8]  2C 01 00 00 2C 01 00 00
  can0  18FF6327   [8]  10 00 00 00 40 06 05 00
  can0  18FFBCD1   [8]  F1 CC 00 FC FF FF FC 0F
  can0  18FFBCCD   [8]  F1 CC 00 FC FF FF FC 0F
  can0  18FF6527   [8]  00 00 00 00 00 00 00 00
  can0  18FF1427   [8]  00 1A FF E5 FF FF 00 00
  can0  18FF6427   [8]  00 00 00 36 FB 00 00 00
  can0  18FF6627   [8]  40 06 05 00 40 06 05 00
  can0  18FF1490   [8]  00 00 00 00 00 00 00 00
  can0  18FFBCCE   [8]  F1 CC 00 FC FF FF FC 0F
  can0  18FFBCD0   [8]  F1 CC 00 FC FF FF FC 0F
  can0  18FFBCCC   [8]  F1 CC 00 FC FF FF FC 0F
  can0  18FF1491   [8]  00 00 00 00 00 00 00 00
  can0  18FFBCCF   [8]  F1 CC 00 FC FF FF FC 0F
  can0  18FF1494   [8]  00 00 00 00 00 50 FF 00
  can0  18FF6027   [8]  2C 01 00 00 2C 01 00 00
  can0  18FF6327   [8]  10 00 00 00 40 06 05 00
  can0  18FF5427   [8]  42 00 00 3C 03 00 00 00
  can0  18FFBCD1   [8]  F1 CC 00 FC FF FF FC 0F
  can0  18FFBCCD   [8]  F1 CC 00 FC FF FF FC 0F
  can0  18FF6527   [8]  00 00 00 00 00 00 00 00
  can0  18FF1427   [8]  00 1A FF E5 FF FF 00 00
  can0  18FF6427   [8]  00 00 00 36 FB 00 00 00
  can0  18FF6627   [8]  40 06 05 00 40 06 05 00
  can0  18FF1490   [8]  00 00 00 00 00 00 00 00
  can0  18FFBCCE   [8]  F1 CC 00 FC FF FF FC 0F
  can0  18FFBDCE   [8]  F0 C0 F0 F3 00 30 0C FF
  can0  18FFBCD0   [8]  F1 CC 00 FC FF FF FC 0F
  can0  18FFBCCC   [8]  F1 CC 00 FC FF FF FC 0F
  can0  18FF1491   [8]  00 00 00 00 00 00 00 00
  can0  18FFBCCF   [8]  F1 CC 00 FC FF FF FC 0F
  can0  18FFBDCF   [8]  F0 C0 F0 F3 00 30 0C FF
  can0  18FF1494   [8]  00 00 00 00 00 50 FF 00
  can0  18FF6027   [8]  2C 01 00 00 2C 01 00 00
  can0  18FF6327   [8]  10 00 00 00 40 06 05 00
  can0  18FF6E19   [6]  00 00 37 00 00 00
  can0  18FFBCD1   [8]  F1 CC 00 FC FF FF FC 0F
  can0  18FFBCCD   [8]  F1 CC 00 FC FF FF FC 0F
  can0  18FF5527   [8]  43 00 00 00 00 00 00 00
  can0  18FF6227   [8]  42 45 43 00 A0 24 00 00
  can0  18FF6127   [8]  43 FF 00 00 00 00 00 00
  can0  18FF6527   [8]  00 00 00 00 00 00 00 00
  can0  18FF1427   [8]  00 1A FF E5 FF FF 00 00
  can0  18FF6427   [8]  00 00 00 36 FB 00 00 00
  can0  18FF6627   [8]  40 06 05 00 40 06 05 00
  can0  18FF1490   [8]  00 00 00 00 00 00 00 00
  can0  18FFBCCE   [8]  F1 CC 00 FC FF FF FC 0F
  can0  18FFBCD0   [8]  F1 CC 00 FC FF FF FC 0F
  can0  18FFBCCC   [8]  F1 CC 00 FC FF FF FC 0F
  can0  18FF1491   [8]  00 00 00 00 00 00 00 00
  can0  18FFBCCF   [8]  F1 CC 00 FC FF FF FC 0F
  can0  18FF1494   [8]  00 00 00 00 00 50 FF 00
  can0  18FF6027   [8]  2C 01 00 00 2C 01 00 00
  can0  18FF6327   [8]  10 00 00 00 40 06 05 00
  can0  18FFBCD1   [8]  F1 CC 00 FC FF FF FC 0F
  can0  18FFBCCD   [8]  F1 CC 00 FC FF FF FC 0F
  can0  18FFD094   [8]  01 7B 79 64 5C FF 00 F0
  can0  18FF6527   [8]  00 00 00 00 00 00 00 00
  can0  18FFD095   [8]  01 7C 7D 64 5C FF 00 F0
  can0  18FF1427   [8]  00 1A FF E5 FF FF 00 00
  can0  18FF1490   [8]  00 00 00 00 00 00 00 00
  can0  18FF6427   [8]  00 00 00 36 FB 00 00 00
  can0  18FF6627   [8]  40 06 06 00 40 06 06 00
  can0  18FFBCCE   [8]  F1 CC 00 FC FF FF FC 0F
  can0  18FFBCD0   [8]  F1 CC 00 FC FF FF FC 0F
  can0  18FFBCCC   [8]  F1 CC 00 FC FF FF FC 0F
  can0  18FF1491   [8]  00 00 00 00 00 00 00 00
  can0  18FFBCCF   [8]  F1 CC 00 FC FF FF FC 0F
  can0  18FF1494   [8]  00 00 00 00 00 50 FF 00
  can0  18FF6027   [8]  2C 01 00 00 2C 01 00 00
  can0  18FF6327   [8]  10 00 00 00 40 06 06 00
  can0  18FFBCD1   [8]  F1 CC 00 FC FF FF FC 0F
  can0  18FFBCCD   [8]  F1 CC 00 FC FF FF FC 0F
  can0  18FF6527   [8]  00 00 00 00 00 00 00 00
  can0  18FF1427   [8]  00 1A FF E5 FF FF 00 00
  can0  18FF6427   [8]  00 00 00 36 FB 00 00 00
  can0  18FFD092   [8]  01 7B 7D 64 5C FF 00 F0
  can0  18FF6627   [8]  40 06 06 00 40 06 06 00
  can0  18FF1490   [8]  00 00 00 00 00 00 00 00
  can0  18FFBCCE   [8]  F1 CC 00 FC FF FF FC 0F
  can0  18FFBCD0   [8]  F1 CC 00 FC FF FF FC 0F
  can0  18FFBCCC   [8]  F1 CC 00 FC FF FF FC 0F
  can0  18FFBDCC   [8]  F0 C0 F0 F3 00 30 0C FF
  can0  18FFD091   [8]  01 7D 7D 64 5C FF 00 F0
  can0  18FF1491   [8]  00 00 00 00 00 00 00 00
  can0  18FFBCCF   [8]  F1 CC 00 FC FF FF FC 0F
  can0  18FF1494   [8]  00 00 00 00 00 50 FF 00
  can0  18FF6027   [8]  2C 01 00 00 2C 01 00 00
  can0  18FF6327   [8]  10 00 00 00 40 06 06 00
  can0  18FFBCD1   [8]  F1 CC 00 FC FF FF FC 0F
  can0  18FFBCCD   [8]  F1 CC 00 FC FF FF FC 0F
  can0  18FF6527   [8]  00 00 00 00 00 00 00 00
  can0  18FF1427   [8]  00 1A FF E5 FF FF 00 00
  can0  18FF6427   [8]  00 00 00 36 FB 00 00 00
  can0  18FF6627   [8]  40 06 05 00 40 06 05 00
  can0  18FF1490   [8]  00 00 00 00 00 00 00 00
  can0  18FFBCCE   [8]  F1 CC 00 FC FF FF FC 0F
  can0  18FFBCD0   [8]  F1 CC 00 FC FF FF FC 0F
  can0  18FFBCCC   [8]  F1 CC 00 FC FF FF FC 0F
  can0  18FF1491   [8]  00 00 00 00 00 00 00 00
  can0  18FFBCCF   [8]  F1 CC 00 FC FF FF FC 0F
  can0  18FF1494   [8]  00 00 00 00 00 50 FF 00
  can0  18FF6027   [8]  2C 01 00 00 2C 01 00 00
  can0  18FF6327   [8]  10 00 00 00 40 06 05 00
  can0  18FFD09D   [8]  E0 7C 7C 78 5C FF 80 FC
  can0  18FFBCD1   [8]  F1 CC 00 FC FF FF FC 0F
  can0  18FFBCCD   [8]  F1 CC 00 FC FF FF FC 0F
  can0  18FF6527   [8]  00 00 00 00 00 00 00 00
  can0  18FF1427   [8]  00 1A FF E5 FF FF 00 00
  can0  18FF6427   [8]  00 00 00 36 FB 00 00 00
  can0  18FF6627   [8]  40 06 05 00 40 06 05 00
  can0  18FF1490   [8]  00 00 00 00 00 00 00 00
  can0  18FFBCCE   [8]  F1 CC 00 FC FF FF FC 0F
  can0  18FFBCD0   [8]  F1 CC 00 FC FF FF FC 0F
  can0  18FFBDD0   [8]  F0 C0 F0 F3 00 30 0C FF
  can0  18FFBCCC   [8]  F1 CC 00 FC FF FF FC 0F
  can0  18FF1491   [8]  00 00 00 00 00 00 00 00
  can0  18FFBCCF   [8]  F1 CC 00 FC FF FF FC 0F
  can0  18FF1494   [8]  00 00 00 00 00 50 FF 00
  can0  18FF6027   [8]  2C 01 00 00 2C 01 00 00
  can0  18FF6327   [8]  10 00 00 00 40 06 05 00
  can0  18FF6D19   [6]  00 00 37 00 03 00
  can0  18FFBCD1   [8]  F1 CC 00 FC FF FF FC 0F
  can0  18FFBCCD   [8]  F1 CC 00 FC FF FF FC 0F
  can0  18FF6527   [8]  00 00 00 00 00 00 00 00
  can0  18FF1427   [8]  00 1A FF E5 FF FF 00 00
  can0  18FF6427   [8]  00 00 00 36 FB 00 00 00
  can0  18FF6627   [8]  40 06 05 00 40 06 05 00
  can0  18FF1490   [8]  00 00 00 00 00 00 00 00
  can0  18FFBCCE   [8]  F1 CC 00 FC FF FF FC 0F
  can0  18FFBCD0   [8]  F1 CC 00 FC FF FF FC 0F
  can0  18FFBCCC   [8]  F1 CC 00 FC FF FF FC 0F
  can0  18FF1491   [8]  00 00 00 00 00 00 00 00
  can0  18FFBCCF   [8]  F1 CC 00 FC FF FF FC 0F
  can0  18FF1494   [8]  00 00 00 00 00 50 FF 00
  can0  18FF6027   [8]  2C 01 00 00 2C 01 00 00
  can0  18FF6327   [8]  10 00 00 00 40 06 05 00
  can0  18FFBCD1   [8]  F1 CC 00 FC FF FF FC 0F
  can0  18FFBDD1   [8]  F0 C0 F0 F3 00 30 0C FF
  can0  18FFBCCD   [8]  F1 CC 00 FC FF FF FC 0F
  can0  18FFBDCD   [8]  00 C0 F0 F3 00 30 0C CF
  can0  18FF6527   [8]  00 00 00 00 00 00 00 00
  can0  18FF1427   [8]  00 1A FF E5 FF FF 00 00
  can0  18FF6427   [8]  00 00 00 36 FB 00 00 00
  can0  18FF6627   [8]  40 06 05 00 40 06 05 00
  can0  18FF1490   [8]  00 00 00 00 00 00 00 00
  can0  18FFBCCE   [8]  F1 CC 00 FC FF FF FC 0F
  can0  18FFBCD0   [8]  F1 CC 00 FC FF FF FC 0F
  can0  18FFBCCC   [8]  F1 CC 00 FC FF FF FC 0F
  can0  18FF1491   [8]  00 00 00 00 00 00 00 00
  can0  18FFBCCF   [8]  F1 CC 00 FC FF FF FC 0F
  can0  18FF1494   [8]  00 00 00 00 00 50 FF 00
  can0  18FF6027   [8]  2C 01 00 00 2C 01 00 00
  can0  18FF6327   [8]  10 00 00 00 40 06 05 00
  can0  18FFBCD1   [8]  F1 CC 00 FC FF FF FC 0F
  can0  18FFBCCD   [8]  F1 CC 00 FC FF FF FC 0F
  can0  18FFD093   [8]  01 7E 7C 64 5C FF 00 F0
  can0  18FF6527   [8]  00 00 00 00 00 00 00 00
  can0  18FF1427   [8]  00 1A FF E5 FF FF 00 00
  can0  18FF6427   [8]  00 00 00 36 FB 00 00 00
  can0  18FF6627   [8]  40 06 05 00 40 06 05 00
  can0  18FF1490   [8]  00 00 00 00 00 00 00 00
  can0  18FFBCCE   [8]  F1 CC 00 FC FF FF FC 0F
  can0  18FFBCD0   [8]  F1 CC 00 FC FF FF FC 0F
  can0  18FFBCCC   [8]  F1 CC 00 FC FF FF FC 0F
  can0  18FF1491   [8]  00 00 00 00 00 00 00 00
  can0  18FFBCCF   [8]  F1 CC 00 FC FF FF FC 0F
  can0  18FF1494   [8]  00 00 00 00 00 50 FF 00
  can0  18FF6027   [8]  2C 01 00 00 2C 01 00 00
  can0  18FF6327   [8]  10 00 00 00 40 06 05 00
  can0  18FFBCD1   [8]  F1 CC 00 FC FF FF FC 0F
  can0  18FFBCCD   [8]  F1 CC 00 FC FF FF FC 0F
  can0  18FF6527   [8]  00 00 00 00 00 00 00 00
  can0  18FF1427   [8]  00 1A FF E5 FF FF 00 00
  can0  18FF6427   [8]  00 00 00 36 FB 00 00 00
  can0  18FF6627   [8]  40 06 05 00 40 06 05 00
  can0  18FF1490   [8]  00 00 00 00 00 00 00 00
  can0  18FFBCCE   [8]  F1 CC 00 FC FF FF FC 0F
  can0  18FFBCD0   [8]  F1 CC 00 FC FF FF FC 0F
  can0  18FFBCCC   [8]  F1 CC 00 FC FF FF FC 0F
  can0  18FF1491   [8]  00 00 00 00 00 00 00 00
  can0  18FFBCCF   [8]  F1 CC 00 FC FF FF FC 0F
  can0  18FF1494   [8]  00 00 00 00 00 50 FF 00
  can0  18FF6027   [8]  2C 01 00 00 2C 01 00 00
  can0  18FF6327   [8]  10 00 00 00 40 06 05 00
  can0  18FFBCD1   [8]  F1 CC 00 FC FF FF FC 0F
  can0  18FF5427   [8]  42 00 00 3C 03 00 00 00
  can0  18FFBCCD   [8]  F1 CC 00 FC FF FF FC 0F
  can0  18FF6527   [8]  00 00 00 00 00 00 00 00
  can0  18FF1427   [8]  00 1A FF E5 FF FF 00 00
  can0  18FF6427   [8]  00 00 00 36 FB 00 00 00
  can0  18FF6627   [8]  40 06 05 00 40 06 05 00
  can0  18FF1490   [8]  00 00 00 00 00 00 00 00
  can0  18FFBCCE   [8]  F1 CC 00 FC FF FF FC 0F
  can0  18FFBDCE   [8]  F0 C0 F0 F3 00 30 0C FF
  can0  18FFBCD0   [8]  F1 CC 00 FC FF FF FC 0F
  can0  18FFBCCC   [8]  F1 CC 00 FC FF FF FC 0F
  can0  18FF1491   [8]  00 00 00 00 00 00 00 00
  can0  18FFBCCF   [8]  F1 CC 00 FC FF FF FC 0F
  can0  18FFBDCF   [8]  F0 C0 F0 F3 00 30 0C FF
  can0  18FF1494   [8]  00 00 00 00 00 50 FF 00
  can0  18FF6027   [8]  2C 01 00 00 2C 01 00 00
  can0  18FF6327   [8]  10 00 00 00 40 06 05 00
  can0  18FF6E19   [6]  00 00 37 00 00 00
  can0  18FFBCD1   [8]  F1 CC 00 FC FF FF FC 0F
  can0  18FFBCCD   [8]  F1 CC 00 FC FF FF FC 0F
  can0  18FF5527   [8]  43 00 00 00 00 00 00 00
  can0  18FF6227   [8]  42 45 43 00 A0 24 00 00
  can0  18FF6127   [8]  43 FF 00 00 00 00 00 00
  can0  18FF6527   [8]  00 00 00 00 00 00 00 00
  can0  18FF1427   [8]  00 1A FF E5 FF FF 00 00
  can0  18FF6427   [8]  00 00 00 36 FB 00 00 00
  can0  18FF6627   [8]  40 06 05 00 40 06 05 00
  can0  18FF1490   [8]  00 00 00 00 00 00 00 00
  can0  18FFBCCE   [8]  F1 CC 00 FC FF FF FC 0F
  can0  18FFBCD0   [8]  F1 CC 00 FC FF FF FC 0F
  can0  18FFBCCC   [8]  F1 CC 00 FC FF FF FC 0F
  can0  18FF1491   [8]  00 00 00 00 00 00 00 00
  can0  18FFBCCF   [8]  F1 CC 00 FC FF FF FC 0F
  can0  18FF1494   [8]  00 00 00 00 00 50 FF 00
  can0  18FF6027   [8]  2C 01 00 00 2C 01 00 00
  can0  18FF6327   [8]  10 00 00 00 40 06 05 00
  can0  18FFBCD1   [8]  F1 CC 00 FC FF FF FC 0F
  can0  18FFBCCD   [8]  F1 CC 00 FC FF FF FC 0F
  can0  18FFD094   [8]  01 7B 79 64 5C FF 00 F0
  can0  18FF6527   [8]  00 00 00 00 00 00 00 00
  can0  18FFD095   [8]  01 7C 7D 64 5C FF 00 F0
  can0  18FF1427   [8]  00 1A FF E5 FF FF 00 00
  can0  18FF6427   [8]  00 00 00 36 FB 00 00 00
  can0  18FF6627   [8]  40 06 05 00 40 06 05 00
  can0  18FF1490   [8]  00 00 00 00 00 00 00 00
  can0  18FFBCCE   [8]  F1 CC 00 FC FF FF FC 0F
  can0  18FFBCD0   [8]  F1 CC 00 FC FF FF FC 0F
  can0  18FFBCCC   [8]  F1 CC 00 FC FF FF FC 0F
  can0  18FF1491   [8]  00 00 00 00 00 00 00 00
  can0  18FFBCCF   [8]  F1 CC 00 FC FF FF FC 0F
  can0  18FF1494   [8]  00 00 00 00 00 50 FF 00
  can0  18FF6027   [8]  2C 01 00 00 2C 01 00 00
  can0  18FF6327   [8]  10 00 00 00 40 06 05 00
  can0  18FFBCD1   [8]  F1 CC 00 FC FF FF FC 0F
